Reply in the agent message only. Do not create, edit, or commit repository files.

You are debugging RTL for a CVDP hardware verification benchmark problem.

## Problem
cvdp_copilot_apb_dsp_op_0002

## Error type
logic

## Fix strategy
The design builds but fails cocotb/pytest checks in the CVDP harness. Use failing test cases and expected vs actual values from the harness log. Make minimal targeted fixes.

## Task description excerpt
The ```apb_dsp_op``` module in the provided buggy RTL is designed to use an APB interface for performing DSP operations on an SRAM where DSP operation can be performed with the APB interface clock or a faster clock. However, during testing, it was observed that the module fails to follow the APB handshake mechanism. Specifically, the PSLVERR should be asserted when an invalid APB address is accessed (PSEL = 1'b1, PENABLE = 1'b1, and address out of valid range). In addition, the selection between clk_dsp and PCLK clock signals is performed using a direct MUX-based clock switching mechanism, which is discouraged because it can introduce design hazards, clock domain crossing issues (CDC), and it is generally considered poor practice.

### Interface

 The following table presents the ```apb_dsp_op```  interface:

| Signal     | Width | Samples | In/Out | Description                              |
|------------|-------|---------|--------|------------------------------------------|
| clk_dsp    | 1     | 1       | Input  | Faster clock of 500 MHz to DSP operation |
| en_clk_dsp | 1     | 1       | Input  | Enable faster DSP clock                  |
| PCLK       | 1     | 1       | Input  | APB clock of 50 MHz                      |
| PRESETn    | 1     | 1       | Input  | Active low asynchronous APB Reset        |
| PADDR      | 8     | 1       | Input  | APB address                              |
| PWRITE     | 1     | 1       | Input  | Write/Read enable                        |
| PWDATA     | 32    | 1       | Input  | Write data                               |
| PSEL       | 1     | 1       | Input  | DSP selector                             |
| PENABLE    | 1     | 1       | Input  | APB enable                               |
| PRDATA     | 32    | 1       | Output | Read data                                |
| PREADY     | 1     | 1       | Output | Ready signal                             |
| PSLVERR    | 1     | 1       | Output | Error signal                             |

### APB Transaction Timing

An **APB protocol** transaction consists of a **setup phase** (where the address and control signals are set) and an **access phase** (where data is transferred when `PENABLE` is asserted). The **slave responds with `PREADY`** to indicate that the transaction is complete and provides the **read data (`PRDATA`) if it is a read operation**. Additionally, the slave **asserts `PSLVERR` to flag an error** when an invalid operation occurs (e.g., accessing an invalid address). 

**Write Cycle (PWRITE = 1):**

- T0: Master asserts PSEL and PWRITE, sets PADDR and PWDATA.
- T1: Master asserts PENABLE, and the slave must set PREADY = 1 immediately (since no wait states).
- T2: Transaction completes when PSEL is deasserted.

**Read Cycle (PWRITE = 0):**

- T0: Master asserts PSEL with target PADDR.
- T1: Master asserts PENABLE, and the slave must set PRDATA and PREADY = 1 immediately.
- T2: Master reads PRDATA, and the transaction completes when PSEL is deasserted.

### Correct PREADY and PSLVERR Handling

PREADY behavior:
- At the start of an APB transaction, the master asserts PSEL and sets the address (PADDR), but PENABLE remains low in this initial cycle. At this stage, PREADY is undefined.

- In the following clock cycle, when PENABLE is asserted (1'b1), the slave must immediately assert PREADY (1'b1), indicating that it is ready to complete the transaction. Since the slave does not support wait states, PREADY is always high during the second phase of the APB transaction.

- Once the master deasserts PSEL, the transaction is considered complete, and PREADY becomes undefined again until the next transaction is initiated.

PSLVERR behavior:
- When a transaction begins, the APB master asserts PSEL and sets the target address (PADDR). At this stage, the PENABLE signal is still low, and PSLVERR remains undefined.

- In the next clock cycle, when PENABLE is asserted (1'b1), the slave evaluates whether the requested transaction is valid. If the operation is correct (i.e., a valid register is accessed or an SRAM address is within range), PSLVERR remains low (0).

- However, if the transaction contains an error, such as accessing an invalid register, attempting a write operation on a read-only register, or addressing an out-of-bounds SRAM location, the slave asserts PSLVERR (1'b1) during the same cycle that PENABLE is high.

- Regardless of whether PSLVERR is asserted or not, PREADY must always be high (1'b1) in a no-wait-state slave, ensuring that the transaction completes in a single clock cycle. After the APB master deasserts PSEL, both PREADY and PSLVERR become undefined until the next transaction begins.

### Clock Domain Crossing (CDC) Synchronization

**Clock Domain Crossing (CDC)** refers to the process of transferring data or control signals between different clock domains in a digital system. A **clock domain** consists of a group of registers and logic that operate under the same clock signal. When a signal transitions from one clock domain to another, **timing issues such as metastability, data corruption, or race conditions can occur**, especially if the two clocks are asynchronous or have different frequencies. To ensure reliable data transfer, these issues must be addressed using appropriate synchronization techniques:

- en_clk_dsp comes from APB (PCLK) but is used in DSP (clk_dsp). Using en_clk_dsp directly in clk_dsp domain without synchronization can result in metastability, glitches, and timing violations. A dual-flop synchronizer or CDC FIFO is recommended.

- SRAM read data (sram_data_out) should be generated in clk_dsp but is used in PCLK. Without synchronization, APB reads could capture invalid data.

- SRAM writes are triggered by APB (PCLK), but memory updates should happen in clk_dsp. If sram_we changes unpredictably, it can cause glitches in memory updates.

### Parameters
- **ADDR_WIDTH**: Width of the address (8 bits).
- **DATA_WIDTH**: Width of the data (32 bits).

### Register Bank
| Register       | Address | Default Value | Permission | Description                                              |
|----------------|---------|---------------|------------|----------------------------------------------------------|
| REG_OPERAND_A  | 0x00    | 32'h0         | W/R        | Holds the SRAM address to read the value for operand A   |
| REG_OPERAND_B  | 0x01    | 32'h0         | W/R        | Holds the SRAM address to read the value for operand B   |
| REG_OPERAND_C  | 0x02    | 32'h0         | W/R        | Holds the SRAM address to read the value for operand C   |
| REG_OPERAND_O  | 0x03    | 32'h0         | W/R        | Holds the SRAM address to write the value for operand O  |
| REG_CONTROL    | 0x04    | 32'h0         | W/R        | Holds the value equivalent to the operation control mode |
| REG_WDATA_SRAM | 0x05    | 32'h0         | W/R        | Holds the data to be written to SRAM                     |
| REG_ADDR_SRAM  | 0x06    | 32'h0         | W/R        | Holds the address to be read or written to SRAM          |

### Control Modes

The module operates in different control modes, which are configured according to the value in the internal register ```reg_control```. The operating modes are described below:
   - 32'd1: Enables writing to SRAM.
   - 32'd2: Enables reading from SRAM.
   - 32'd3: Enables reading the A operand.
   - 32'd4: Enables reading the B operand.
   - 32'd5: Enables reading the C operand.
   - 32'd6: Enables writing the O operand.
   - Other values: Only performs write and read operations on internal registers.

At reset, PREADY must initialize to 1'b0 and transition to 1'b1 only after detecting a valid APB transaction, `PSLVERR` should be cleared on reset. When both `PSEL` and `PENABLE` are asserted, `PSLVERR` should be set if `PADDR` is invalid or if the SRAM address is out of bounds, otherwise, `PSLVERR` should be deasserted. Additionally, synchronize the SRAM to the same clock domain as the DSP to ensure consistency in memory operations. Identify and fix any RTL bugs to guarantee the correct APB handshake, considering that this implementation does not support wait states. Address clock domain crossing (CDC) issues by implementing a clock domain synchronizer, such as a dual-flop synchronizer or an asynchronous FIFO, for data transfer between the APB and DSP clock domains. Also, ensure a proper selection mechanism between clk_dsp and PCLK to prevent potential metastability or glitches.

## Current candidate files (line-numbered on patch targets)
### rtl/apb_dsp_op.sv
```verilog
1| // APB DSP Operation Module
   2| module apb_dsp_op #(
   3|     parameter ADDR_WIDTH = 'd8,
   4|     parameter DATA_WIDTH = 'd32
   5| ) (
   6|     input  logic                  clk_dsp,    // Faster clock to DSP operation
   7|     input  logic                  en_clk_dsp, // Enable DSP operation with faster clock
   8|     input  logic                  PCLK,       // APB clock
   9|     input  logic                  PRESETn,    // Active low asynchronous APB Reset
  10|     input  logic [ADDR_WIDTH-1:0] PADDR,      // APB address
  11|     input  logic                  PWRITE,     // Write/Read enable
  12|     input  logic [DATA_WIDTH-1:0] PWDATA,     // Write data
  13|     input  logic                  PSEL,       // DSP selector
  14|     input  logic                  PENABLE,    // APB enable
  15|     output logic [DATA_WIDTH-1:0] PRDATA,     // Read data
  16|     output logic                  PREADY      // Ready signal
  17| );
  18| 
  19|     // Clock sel logic
  20|     assign dsp_clk_sel = (en_clk_dsp) ? clk_dsp : PCLK;
  21| 
  22|     // Internal registers address map
  23|     localparam ADDRESS_A         = 32'h0;  // 0x00
  24|     localparam ADDRESS_B         = 32'h4;  // 0x04
  25|     localparam ADDRESS_C         = 32'h8;  // 0x08
  26|     localparam ADDRESS_O         = 32'hC;  // 0x0C
  27|     localparam ADDRESS_CONTROL   = 32'h10; // 0x10
  28|     localparam ADDRESS_WDATA     = 32'h14; // 0x14
  29|     localparam ADDRESS_SRAM_ADDR = 32'h18; // 0x18
  30| 
  31|     // Control modes
  32|     localparam SRAM_WRITE     = 32'd1;
  33|     localparam SRAM_READ      = 32'd2;
  34|     localparam DSP_READ_OP_A  = 32'd3;
  35|     localparam DSP_READ_OP_B  = 32'd4;
  36|     localparam DSP_READ_OP_C  = 32'd5;
  37|     localparam DSP_WRITE_OP_O = 32'd6;
  38| 
  39|     // Internal signals
  40|     logic [DATA_WIDTH-1:0] reg_operand_a;
  41|     logic [DATA_WIDTH-1:0] reg_operand_b;
  42|     logic [DATA_WIDTH-1:0] reg_operand_c;
  43|     logic [DATA_WIDTH-1:0] reg_operand_o;
  44|     logic [DATA_WIDTH-1:0] reg_control;
  45|     logic [DATA_WIDTH-1:0] reg_wdata_sram;
  46|     logic [DATA_WIDTH-1:0] reg_addr_sram;
  47| 
  48|     logic signed [DATA_WIDTH-1:0] wire_op_a;
  49|     logic signed [DATA_WIDTH-1:0] wire_op_b;
  50|     logic signed [DATA_WIDTH-1:0] wire_op_c;
  51|     logic signed [DATA_WIDTH-1:0] wire_op_o;
  52|     logic        [DATA_WIDTH-1:0] sram_data_in;
  53|     logic                         sram_we;
  54|     logic        [DATA_WIDTH-1:0] sram_addr;
  55|     logic        [DATA_WIDTH-1:0] sram_data_out;
  56| 
  57|     // APB interface logic
  58|     always_ff @(posedge PCLK or negedge PRESETn) begin
  59|         if (!PRESETn) begin
  60|             reg_operand_a  <= 'd0;
  61|             reg_operand_b  <= 'd0;
  62|             reg_operand_c  <= 'd0;
  63|             reg_operand_o  <= 'd0;
  64|             reg_control    <= 'd0;
  65|             reg_wdata_sram <= 'd0;
  66|             reg_addr_sram  <= 'd0;
  67|             PREADY <= 1'b0;
  68|         end else if (PENABLE & PSEL) begin
  69|             PREADY <= 1'b1;
  70|             if (PWRITE) begin
  71|                 case (PADDR)
  72|                     ADDRESS_A         : reg_operand_a  <= PWDATA;
  73|                     ADDRESS_B         : reg_operand_b  <= PWDATA;
  74|                     ADDRESS_C         : reg_operand_c  <= PWDATA;
  75|                     ADDRESS_O         : reg_operand_o  <= PWDATA;
  76|                     ADDRESS_CONTROL   : reg_control    <= PWDATA;
  77|                     ADDRESS_WDATA     : reg_wdata_sram <= PWDATA;
  78|                     ADDRESS_SRAM_ADDR : reg_addr_sram  <= PWDATA;
  79|                 endcase
  80|             end else begin
  81|                 if (reg_control == SRAM_READ) begin
  82|                     PRDATA <= sram_data_out;
  83|                 end else begin
  84|                     case (PADDR)
  85|                         ADDRESS_A         : PRDATA <= reg_operand_a;
  86|                         ADDRESS_B         : PRDATA <= reg_operand_b;
  87|                         ADDRESS_C         : PRDATA <= reg_operand_c;
  88|                         ADDRESS_O         : PRDATA <= reg_operand_o;
  89|                         ADDRESS_CONTROL   : PRDATA <= reg_control;
  90|                         ADDRESS_WDATA     : PRDATA <= reg_wdata_sram;
  91|                         ADDRESS_SRAM_ADDR : PRDATA <= reg_addr_sram;
  92|                     endcase
  93|                 end               
  94|             end
  95|         end
  96|     end
  97| 
  98|     // SRAM logic
  99|     logic [DATA_WIDTH-1:0] mem [63:0];
 100| 
 101|     always_comb begin
 102|         sram_data_in = (reg_control == SRAM_WRITE) ? reg_wdata_sram : wire_op_o;
 103| 
 104|         if ((reg_control == SRAM_WRITE) || (reg_control == DSP_WRITE_OP_O)) begin
 105|             sram_we = 1'b1;
 106|         end else begin
 107|             sram_we = 1'b0;
 108|         end
 109| 
 110|         case (reg_control)
 111|             DSP_READ_OP_A  : sram_addr = reg_operand_a;
 112|             DSP_READ_OP_B  : sram_addr = reg_operand_b;
 113|             DSP_READ_OP_C  : sram_addr = reg_operand_c;
 114|             DSP_WRITE_OP_O : sram_addr = reg_operand_o;
 115|             default        : sram_addr = reg_addr_sram;
 116|         endcase
 117|     end
 118| 
 119|     always_ff @(posedge PCLK) begin
 120|         if (sram_we) begin
 121|             mem[sram_addr] <= sram_data_in;
 122|         end else begin
 123|             sram_data_out <= mem[sram_addr];
 124|         end
 125|     end
 126|     
 127|     // DSP operation
 128|     always_ff @(posedge dsp_clk_sel) begin
 129|         case (reg_control)
 130|             DSP_READ_OP_A  : wire_op_a <= sram_data_out;
 131|             DSP_READ_OP_B  : wire_op_b <= sram_data_out;
 132|             DSP_READ_OP_C  : wire_op_c <= sram_data_out;
 133|         endcase
 134|     end
 135|     
 136|     assign wire_op_o = (wire_op_a * wire_op_b) + wire_op_c;
 137| 
 138| endmodule
```

## Files you must patch
rtl/apb_dsp_op.sv

Primary module: `apb_dsp_op`

## Structured harness feedback
```text
error_kind: logic
```



## Raw CVDP harness output excerpt
```text
## Key failure excerpts
#1 [internal] load local bake definitions
#1 reading from stdin 690B done
#1 DONE 0.0s

#2 [internal] load build definition from Dockerfile
#2 transferring dockerfile: 180B 0.0s done
#2 DONE 0.1s

#3 [internal] load metadata for docker.io/nvidia/cvdp-sim:v1.0.0
#3 DONE 0.1s

#4 [internal] load .dockerignore
#4 transferring context: 2B 0.0s done
#4 DONE 0.1s

#5 [1/1] FROM docker.io/nvidia/cvdp-sim:v1.0.0@sha256:5460a1246ec7c3fbd34328936868bc8d7bc671ad54c7c08c9346fc103da713ee
#5 resolve docker.io/nvidia/cvdp-sim:v1.0.0@sha256:5460a1246ec7c3fbd34328936868bc8d7bc671ad54c7c08c9346fc103da713ee 0.0s done
#5 CACHED

#6 exporting to image
#6 exporting layers done
#6 exporting manifest sha256:daa6ee580fd9dcde11e072741a217e61f1dc77019270dd2f6fe0270a86900787 0.0s done
#6 exporting config sha256:de57061612f9404a6700b5c907f2ea6eb5aca4e1114c6d1f2b670278ce56924b 0.0s done
#6 exporting attestation manifest sha256:e3cce874d819d94ab995234a645ed9caabce7158c2d21fc512ceaccbfcc901d5 0.0s done
#6 exporting manifest list sha256:94b1912d2ebf5f0bdd113b93622a235996493fbafaa2d55fbd98c570a9b3fb7f
#6 exporting manifest list sha256:94b1912d2ebf5f0bdd113b93622a235996493fbafaa2d55fbd98c570a9b3fb7f 0.0s done
#6 naming to docker.io/library/cvdp_react_cvdp_copilot_apb_dsp_op_0002_1-direct:latest done
#6 unpacking to docker.io/library/cvdp_react_cvdp_copilot_apb_dsp_op_0002_1-direct:latest 0.0s done
#6 DONE 0.2s

#7 resolving provenance for metadata file
#7 DONE 0.0s
============================= test session starts ==============================
platform linux -- Python 3.12.3, pytest-8.3.2, pluggy-1.6.0 -- /venv/bin/python
cachedir: /code/rundir/.cache
rootdir: /src
collecting ... collected 1 item

../../src/test_runner.py::test_cvdp_copilot_apb_dsp_op[8-32] FAILED      [100%]

=================================== FAILURES ===================================
______________________ test_cvdp_copilot_apb_dsp_op[8-32] ______________________

addr_width = 8, data_width = 32

    @pytest.mark.parametrize("addr_width, data_width", [(8, 32)])  # Add desired ADDR_WIDTH and DATA_WIDTH values here
    def test_cvdp_copilot_apb_dsp_op(addr_width, data_width):
        """
        Pytest function to run cocotb simulations with different ADDR_WIDTH and DATA_WIDTH parameters.
    
        Args:
            addr_width (int): The ADDR_WIDTH value to test.
            data_width (int): The DATA_WIDTH value to test.
        """
        try:
>           runner(addr_width, data_width)

/src/test_runner.py:66: 
_ _ _ _ _ _ _ _ _ _ _ _ _ _ _ _ _ _ _ _ _ _ _ _ _ _ _ _ _ _ _ _ _ _ _ _ _ _ _ _ 

addr_width = 8, data_width = 32

    def runner(addr_width, data_width):
        """
        Runs the cocotb simulation with the specified ADDR_WIDTH and DATA_WIDTH parameters.
    
        Args:
            addr_width (int): The ADDR_WIDTH value to test.
            data_width (int): The DATA_WIDTH value to test.
        """
        logger.info(f"Starting simulation with ADDR_WIDTH = {addr_width}")
        logger.info(f"Starting simulation with DATA_WIDTH = {data_width}")
    
        # Initialize the simulator runner
        runner = get_runner(sim)
    
        # Build the simulation with the specified ADDR_WIDTH and DATA_WIDTH parameters
        runner.build(
            sources=verilog_sources,
            hdl_toplevel=toplevel,
            parameters={"ADDR_WIDTH": addr_width, "DATA_WIDTH": data_width},  # Pass ADDR_WIDTH parameter
            # Simulator Arguments
            always=True,
            clean=True,
            waves=False,        # Disable waveform generation for faster runs
            verbose=False,      # Set to True for detailed simulator logs
            timescale=("1ns", "1ps"),
            log_file=f"sim_{toplevel}.log"
        )
    
        # Run the simulation
>       runner.test(
            hdl_toplevel=toplevel,
            test_module=module,
            waves=False
        )
E  

[... truncated 24729 chars from end of harness output ...]
```

## Cocotb test excerpt
### test_apb_dsp_op_harness.py
```python
import cocotb
from cocotb.triggers import RisingEdge, Timer
from cocotb.clock import Clock
import logging

# Constants
APB_ADDRESSES = {
    'ADDRESS_A': 0x00,
    'ADDRESS_B': 0x04,
    'ADDRESS_C': 0x08,
    'ADDRESS_O': 0x0C,
    'ADDRESS_CONTROL': 0x10,
    'ADDRESS_WDATA': 0x14,
    'ADDRESS_SRAM_ADDR': 0x18
}

async def apb_write(dut, address, data):
    """Perform an APB write transaction"""
    # Set APB write signals
    dut.PSEL.value = 1
    dut.PADDR.value = address  # Word address
    dut.PWRITE.value = 1
    dut.PWDATA.value = data
    dut

[... truncated 2841 chars from cocotb test excerpt ...]

R_WIDTH = int(dut.ADDR_WIDTH.value)
    DATA_WIDTH = int(dut.DATA_WIDTH.value)

    # Start the clocks
    cocotb.start_soon(Clock(dut.PCLK, 10, unit="ns").start())
    cocotb.start_soon(Clock(dut.clk_dsp, 2, unit="ns").start())

    # Reset
    dut.PRESETn.value = 0
    dut.en_clk_dsp.value = 0
    await Timer(50, unit='ns')  # Hold reset low for 50 ns
    dut.PRESETn.value = 1

    # Wait for reset deassertion
    await RisingEdge(dut.PCLK)

    # Perform APB write to ADDRESS_B
    write_data = 0xA5A5A5A5  # Write a pattern
    await apb_write(dut, APB_ADDRESSES['ADDRESS_B'], write_data)
```

## Task
- Fix the RTL so the CVDP Docker harness passes (cocotb/pytest).
- Output TWO sections:

## Rationale
3-8 bullet points citing line numbers and harness evidence.

## PatchedFiles
For each file in ['rtl/apb_dsp_op.sv'], use:

### rtl/your_file.sv
```verilog
<full file contents>
```
